T0508 3273:945 SEGGER J-Link V6.30h Log File (0000ms, 43268ms total)
T0508 3273:945 DLL Compiled: Mar 16 2018 18:02:51 (0000ms, 43268ms total)
T0508 3273:945 Logging started @ 2019-03-24 23:27 (0000ms, 43268ms total)
T0508 3273:945 JLINK_SetWarnOutHandler(...) (0000ms, 43268ms total)
T0508 3273:945 JLINK_OpenEx(...)
Firmware: J-Link ARM-OB STM32 compiled Aug 22 2012 19:52:04
Hardware: V7.00
S/N: 20090928
Feature(s): RDI,FlashDL,FlashBP,JFlash,GDB
TELNET listener socket opened on port 19021WEBSRV 
Starting webserver (0045ms, 43313ms total)
T0508 3273:945 WEBSRV Webserver running on local port 19080 (0045ms, 43313ms total)
T0508 3273:945   returns O.K. (0045ms, 43313ms total)
T0508 3273:990 JLINK_GetEmuCaps()  returns 0x88EA5833 (0000ms, 43313ms total)
T0508 3273:991 JLINK_TIF_GetAvailable(...) (0000ms, 43313ms total)
T0508 3273:991 JLINK_SetErrorOutHandler(...) (0000ms, 43313ms total)
T0508 3273:991 JLINK_ExecCommand("ProjectFile = "C:\Users\xiongyikai\Documents\STM32\Stepping\MDK-ARM\JLinkSettings.ini"", ...).   returns 0x00 (0000ms, 43313ms total)
T0508 3273:991 JLINK_ExecCommand("Device = STM32F103C8", ...). Device "STM32F103C8" selected.  returns 0x00 (0001ms, 43314ms total)
T0508 3273:992 JLINK_ExecCommand("DisableConnectionTimeout", ...).   returns 0x01 (0000ms, 43314ms total)
T0508 3273:992 JLINK_GetHardwareVersion()  returns 0x11170 (0000ms, 43314ms total)
T0508 3273:992 JLINK_GetDLLVersion()  returns 63008 (0000ms, 43314ms total)
T0508 3273:992 JLINK_GetFirmwareString(...) (0000ms, 43314ms total)
T0508 3273:992 JLINK_GetDLLVersion()  returns 63008 (0000ms, 43314ms total)
T0508 3273:992 JLINK_GetCompileDateTime() (0000ms, 43314ms total)
T0508 3273:992 JLINK_GetFirmwareString(...) (0000ms, 43314ms total)
T0508 3273:992 JLINK_GetHardwareVersion()  returns 0x11170 (0000ms, 43314ms total)
T0508 3273:992 JLINK_TIF_Select(JLINKARM_TIF_SWD)  returns 0x00 (0000ms, 43314ms total)
T0508 3273:992 JLINK_SetSpeed(5000) (0000ms, 43314ms total)
T0508 3273:992 JLINK_GetId() >0x10B TIF>Found SW-DP with ID 0x1BA01477 >0x0D TIF> >0x28 TIF> >0x0D TIF> >0x28 TIF> >0x0D TIF> >0x28 TIF> >0x0D TIF> >0x28 TIF> >0x0D TIF> >0x21 TIF> >0x0D TIF> >0x28 TIF> >0x0D TIF> >0x28 TIF> >0x0D TIF> >0x28 TIF> >0x0D TIF> >0x21 TIF> >0x0D TIF> >0x21 TIF> >0x0D TIF> >0x28 TIF> >0x0D TIF> >0x21 TIF> >0x0D TIF> >0x21 TIF> >0x0D TIF> >0x28 TIF> >0x0D TIF> >0x21 TIF> >0x0D TIF> >0x21 TIF> >0x0D TIF> >0x28 TIF> >0x0D TIF> >0x21 TIF> >0x0D TIF> >0x21 TIF> >0x0D TIF>
 >0x28 TIF> >0x0D TIF> >0x21 TIF> >0x0D TIF> >0x21 TIF> >0x0D TIF> >0x28 TIF> >0x0D TIF> >0x21 TIF> >0x0D TIF> >0x21 TIF> >0x0D TIF> >0x28 TIF> >0x0D TIF> >0x21 TIF> >0x0D TIF> >0x21 TIF> >0x10B TIF>Found SW-DP with ID 0x1BA01477 >0x0D TIF> >0x28 TIF> >0x0D TIF> >0x28 TIF> >0x0D TIF> >0x28 TIF> >0x0D TIF> >0x28 TIF> >0x0D TIF> >0x21 TIF> >0x0D TIF> >0x28 TIF>Scanning AP map to find all available APs >0x0D TIF> >0x28 TIF> >0x0D TIF> >0x21 TIF> >0x0D TIF> >0x21 TIF> >0x0D TIF> >0x28 TIF> >0x0D TIF>
 >0x21 TIF> >0x0D TIF> >0x21 TIF>AP[1]: Stopped AP scan as end of AP map has been reachedAP[0]: AHB-AP (IDR: 0x14770011)Iterating through AP map to find AHB-AP to use >0x42 TIF> >0x28 TIF> >0x0D TIF> >0x28 TIF> >0x0D TIF> >0x21 TIF> >0x0D TIF> >0x21 TIF> >0x42 TIF> >0x28 TIF> >0x0D TIF> >0x28 TIF> >0x0D TIF> >0x28 TIF> >0x0D TIF> >0x21 TIF> >0x0D TIF> >0x21 TIF>AP[0]: Core foundAP[0]: AHB-AP ROM base: 0xE00FF000 >0x0D TIF> >0x28 TIF> >0x0D TIF> >0x28 TIF> >0x0D TIF> >0x28 TIF> >0x0D TIF> >0x21 TIF>
 >0x0D TIF> >0x21 TIF>CPUID register: 0x411FC231. Implementer code: 0x41 (ARM)Found Cortex-M3 r1p1, Little endian. -- CPU_ReadMem(4 bytes @ 0xE000EDF0) -- CPU_WriteMem(4 bytes @ 0xE000EDF0) -- CPU_ReadMem(4 bytes @ 0xE0002000)FPUnit: 6 code (BP) slots and 2 literal slots -- CPU_ReadMem(4 bytes @ 0xE000EDFC) -- CPU_WriteMem(4 bytes @ 0xE000EDFC) -- CPU_ReadMem(4 bytes @ 0xE0001000) -- CPU_WriteMem(4 bytes @ 0xE0001000) -- CPU_ReadMem(4 bytes @ 0xE000ED88) -- CPU_WriteMem(4 bytes @ 0xE000ED88)
 -- CPU_ReadMem(4 bytes @ 0xE000ED88) -- CPU_WriteMem(4 bytes @ 0xE000ED88)CoreSight components:ROMTbl[0] @ E00FF000 -- CPU_ReadMem(16 bytes @ 0xE00FF000) -- CPU_ReadMem(16 bytes @ 0xE000EFF0) -- CPU_ReadMem(16 bytes @ 0xE000EFE0)ROMTbl[0][0]: E000E000, CID: B105E00D, PID: 001BB000 SCS -- CPU_ReadMem(16 bytes @ 0xE0001FF0) -- CPU_ReadMem(16 bytes @ 0xE0001FE0)ROMTbl[0][1]: E0001000, CID: B105E00D, PID: 001BB002 DWT -- CPU_ReadMem(16 bytes @ 0xE0002FF0) -- CPU_ReadMem(16 bytes @ 0xE0002FE0)
ROMTbl[0][2]: E0002000, CID: B105E00D, PID: 000BB003 FPB -- CPU_ReadMem(16 bytes @ 0xE0000FF0) -- CPU_ReadMem(16 bytes @ 0xE0000FE0)ROMTbl[0][3]: E0000000, CID: B105E00D, PID: 001BB001 ITM -- CPU_ReadMem(16 bytes @ 0xE00FF010) -- CPU_ReadMem(16 bytes @ 0xE0040FF0) -- CPU_ReadMem(16 bytes @ 0xE0040FE0)ROMTbl[0][4]: E0040000, CID: B105900D, PID: 001BB923 TPIU-Lite >0x0D TIF> >0x21 TIF>  returns 0x1BA01477 (0130ms, 43444ms total)
T0508 3274:122 JLINK_GetDLLVersion()  returns 63008 (0000ms, 43444ms total)
T0508 3274:122 JLINK_CORE_GetFound()  returns 0x30000FF (0000ms, 43444ms total)
T0508 3274:122 JLINK_GetDebugInfo(0x100 = JLINKARM_ROM_TABLE_ADDR_INDEX) -- Value=0xE00FF000  returns 0x00 (0000ms, 43444ms total)
T0508 3274:122 JLINK_GetDebugInfo(0x100 = JLINKARM_ROM_TABLE_ADDR_INDEX) -- Value=0xE00FF000  returns 0x00 (0000ms, 43444ms total)
T0508 3274:122 JLINK_GetDebugInfo(0x101 = JLINKARM_DEBUG_INFO_ETM_ADDR_INDEX) -- Value=0x00000000  returns 0x00 (0000ms, 43444ms total)
T0508 3274:122 JLINK_ReadMemEx(0xE0041FF0, 0x0010 Bytes, ..., Flags = 0x02000004) -- CPU_ReadMem(16 bytes @ 0xE0041FF0) - Data: 00 00 00 00 00 00 00 00 00 00 00 00 00 00 00 00  returns 0x10 (0000ms, 43444ms total)
T0508 3274:122 JLINK_GetDebugInfo(0x102 = JLINKARM_DEBUG_INFO_MTB_ADDR_INDEX) -- Value=0x00000000  returns 0x00 (0000ms, 43444ms total)
T0508 3274:122 JLINK_GetDebugInfo(0x103 = JLINKARM_DEBUG_INFO_TPIU_ADDR_INDEX) -- Value=0xE0040000  returns 0x00 (0000ms, 43444ms total)
T0508 3274:122 JLINK_GetDebugInfo(0x104 = JLINKARM_DEBUG_INFO_ITM_ADDR_INDEX) -- Value=0xE0000000  returns 0x00 (0000ms, 43444ms total)
T0508 3274:122 JLINK_GetDebugInfo(0x105 = JLINKARM_DEBUG_INFO_DWT_ADDR_INDEX) -- Value=0xE0001000  returns 0x00 (0000ms, 43444ms total)
T0508 3274:122 JLINK_GetDebugInfo(0x106 = JLINKARM_DEBUG_INFO_FPB_ADDR_INDEX) -- Value=0xE0002000  returns 0x00 (0000ms, 43444ms total)
T0508 3274:122 JLINK_GetDebugInfo(0x107 = JLINKARM_DEBUG_INFO_NVIC_ADDR_INDEX) -- Value=0xE000E000  returns 0x00 (0001ms, 43445ms total)
T0508 3274:123 JLINK_GetDebugInfo(0x10C = JLINKARM_DEBUG_INFO_DBG_ADDR_INDEX) -- Value=0xE000EDF0  returns 0x00 (0000ms, 43445ms total)
T0508 3274:123 JLINK_GetDebugInfo(0x01 = Unknown) -- Value=0x00000000  returns 0x00 (0000ms, 43445ms total)
T0508 3274:123 JLINK_ReadMemU32(0xE000ED00, 0x0001 Items, ...) -- CPU_ReadMem(4 bytes @ 0xE000ED00) - Data: 31 C2 1F 41  returns 0x01 (0000ms, 43445ms total)
T0508 3274:123 JLINK_GetDebugInfo(0x10F = JLINKARM_DEBUG_INFO_HAS_CORTEX_M_SECURITY_EXT_INDEX) -- Value=0x00000000  returns 0x00 (0000ms, 43445ms total)
T0508 3274:123 JLINK_SetResetType(JLINKARM_CM3_RESET_TYPE_NORMAL)  returns JLINKARM_CM3_RESET_TYPE_NORMAL (0000ms, 43445ms total)
T0508 3274:123 JLINK_Reset() -- CPU is running -- CPU_WriteMem(4 bytes @ 0xE000EDF0) -- CPU is running -- CPU_WriteMem(4 bytes @ 0xE000EDFC)Reset: Halt core after reset via DEMCR.VC_CORERESET. >0x35 TIF>Reset: Reset device via AIRCR.SYSRESETREQ. -- CPU is running -- CPU_WriteMem(4 bytes @ 0xE000ED0C) >0x0D TIF> >0x28 TIF> -- CPU_ReadMem(4 bytes @ 0xE000EDF0) -- CPU_ReadMem(4 bytes @ 0xE000EDF0) -- CPU is running -- CPU_WriteMem(4 bytes @ 0xE000EDF0) -- CPU is running -- CPU_WriteMem(4 bytes @ 0xE000EDFC)
 -- CPU_ReadMem(4 bytes @ 0xE000EDF0) -- CPU_WriteMem(4 bytes @ 0xE0002000) -- CPU_ReadMem(4 bytes @ 0xE000EDFC) -- CPU_ReadMem(4 bytes @ 0xE0001000) (0065ms, 43510ms total)
T0508 3274:188 JLINK_ReadReg(R15 (PC))  returns 0x08000100 (0000ms, 43510ms total)
T0508 3274:188 JLINK_ReadReg(XPSR)  returns 0x01000000 (0000ms, 43510ms total)
T0508 3274:188 JLINK_Halt()  returns 0x00 (0000ms, 43510ms total)
T0508 3274:188 JLINK_ReadMemU32(0xE000EDF0, 0x0001 Items, ...) -- CPU_ReadMem(4 bytes @ 0xE000EDF0) - Data: 03 00 03 00  returns 0x01 (0001ms, 43511ms total)
T0508 3274:189 JLINK_WriteU32(0xE000EDF0, 0xA05F0003) -- CPU_WriteMem(4 bytes @ 0xE000EDF0)  returns 0x00 (0000ms, 43511ms total)
T0508 3274:189 JLINK_WriteU32(0xE000EDFC, 0x01000000) -- CPU_WriteMem(4 bytes @ 0xE000EDFC)  returns 0x00 (0000ms, 43511ms total)
T0508 3274:190 JLINK_GetHWStatus(...)  returns 0x00 (0000ms, 43511ms total)
T0508 3274:190 JLINK_GetNumBPUnits(Type = 0xFFFFFF00)  returns 0x06 (0000ms, 43511ms total)
T0508 3274:190 JLINK_GetNumBPUnits(Type = 0xF0)  returns 0x2000 (0000ms, 43511ms total)
T0508 3274:190 JLINK_GetNumWPUnits()  returns 0x04 (0000ms, 43511ms total)
T0508 3274:190 JLINK_GetSpeed()  returns 0xFA0 (0000ms, 43511ms total)
T0508 3274:190 JLINK_ReadMemU32(0xE000E004, 0x0001 Items, ...) -- CPU_ReadMem(4 bytes @ 0xE000E004) - Data: 01 00 00 00  returns 0x01 (0000ms, 43511ms total)
T0508 3274:190 JLINK_ReadMemU32(0xE000E004, 0x0001 Items, ...) -- CPU_ReadMem(4 bytes @ 0xE000E004) - Data: 01 00 00 00  returns 0x01 (0001ms, 43512ms total)
T0508 3274:191 JLINK_WriteMemEx(0xE0001000, 0x001C Bytes, ..., Flags = 0x02000004) - Data: 01 00 00 00 00 00 00 00 00 00 00 00 00 00 00 00 ... -- CPU_WriteMem(28 bytes @ 0xE0001000)  returns 0x1C (0001ms, 43513ms total)
T0508 3274:192 JLINK_ReadReg(R15 (PC))  returns 0x08000100 (0000ms, 43513ms total)
T0508 3274:192 JLINK_ReadReg(XPSR)  returns 0x01000000 (0000ms, 43513ms total)
T0508 3274:260 JLINK_SetResetType(JLINKARM_CM3_RESET_TYPE_NORMAL)  returns JLINKARM_CM3_RESET_TYPE_NORMAL (0000ms, 43513ms total)
T0508 3274:260 JLINK_Reset() -- CPU_WriteMem(4 bytes @ 0xE000EDF0) -- CPU_WriteMem(4 bytes @ 0xE000EDFC)Reset: Halt core after reset via DEMCR.VC_CORERESET. >0x35 TIF>Reset: Reset device via AIRCR.SYSRESETREQ. -- CPU_WriteMem(4 bytes @ 0xE000ED0C) >0x0D TIF> >0x28 TIF> -- CPU_ReadMem(4 bytes @ 0xE000EDF0) -- CPU_ReadMem(4 bytes @ 0xE000EDF0) -- CPU_WriteMem(4 bytes @ 0xE000EDF0) -- CPU_WriteMem(4 bytes @ 0xE000EDFC) -- CPU_ReadMem(4 bytes @ 0xE000EDF0) -- CPU_WriteMem(4 bytes @ 0xE0002000)
 -- CPU_ReadMem(4 bytes @ 0xE000EDFC) -- CPU_ReadMem(4 bytes @ 0xE0001000) (0066ms, 43579ms total)
T0508 3274:326 JLINK_ReadReg(R15 (PC))  returns 0x08000100 (0000ms, 43579ms total)
T0508 3274:326 JLINK_ReadReg(XPSR)  returns 0x01000000 (0000ms, 43579ms total)
T0508 3274:326 JLINK_ReadMemEx(0x080000EC, 0x003C Bytes, ..., Flags = 0x02000000) -- CPU_ReadMem(128 bytes @ 0x080000C0) -- Updating C cache (128 bytes @ 0x080000C0) -- Read from C cache (60 bytes @ 0x080000EC) - Data: DF F8 0C D0 00 F0 FC F8 00 48 00 47 0D 18 00 08 ...  returns 0x3C (0002ms, 43581ms total)
T0508 3274:410 JLINK_ReadMemEx(0x40020000, 0x0004 Bytes, ..., Flags = 0x02000004) -- CPU_ReadMem(4 bytes @ 0x40020000) - Data: 00 00 00 00  returns 0x04 (0000ms, 43581ms total)
T0508 3274:410 JLINK_ReadMemEx(0x40020000, 0x0004 Bytes, ..., Flags = 0x02000004) -- CPU_ReadMem(4 bytes @ 0x40020000) - Data: 00 00 00 00  returns 0x04 (0001ms, 43582ms total)
T0508 3274:411 JLINK_ReadMemEx(0x40020008, 0x000C Bytes, ..., Flags = 0x02000004) -- CPU_ReadMem(12 bytes @ 0x40020008) - Data: 00 00 00 00 00 00 00 00 00 00 00 00  returns 0x0C (0000ms, 43582ms total)
T0508 3274:411 JLINK_ReadMemEx(0x40020008, 0x0004 Bytes, ..., Flags = 0x02000004) -- CPU_ReadMem(4 bytes @ 0x40020008) - Data: 00 00 00 00  returns 0x04 (0001ms, 43583ms total)
T0508 3274:412 JLINK_ReadMemEx(0x4002000C, 0x0004 Bytes, ..., Flags = 0x02000004) -- CPU_ReadMem(4 bytes @ 0x4002000C) - Data: 00 00 00 00  returns 0x04 (0000ms, 43583ms total)
T0508 3274:412 JLINK_ReadMemEx(0x40020010, 0x0004 Bytes, ..., Flags = 0x02000004) -- CPU_ReadMem(4 bytes @ 0x40020010) - Data: 00 00 00 00  returns 0x04 (0000ms, 43583ms total)
T0508 3274:412 JLINK_ReadMemEx(0x40020014, 0x0004 Bytes, ..., Flags = 0x02000004) -- CPU_ReadMem(4 bytes @ 0x40020014) - Data: 00 00 00 00  returns 0x04 (0001ms, 43584ms total)
T0508 3274:413 JLINK_ReadMemEx(0x40020014, 0x0004 Bytes, ..., Flags = 0x02000004) -- CPU_ReadMem(4 bytes @ 0x40020014) - Data: 00 00 00 00  returns 0x04 (0000ms, 43584ms total)
T0508 3274:413 JLINK_ReadMemEx(0x4002001C, 0x000C Bytes, ..., Flags = 0x02000004) -- CPU_ReadMem(12 bytes @ 0x4002001C) - Data: 00 00 00 00 00 00 00 00 00 00 00 00  returns 0x0C (0001ms, 43585ms total)
T0508 3274:414 JLINK_ReadMemEx(0x4002001C, 0x0004 Bytes, ..., Flags = 0x02000004) -- CPU_ReadMem(4 bytes @ 0x4002001C) - Data: 00 00 00 00  returns 0x04 (0000ms, 43585ms total)
T0508 3274:414 JLINK_ReadMemEx(0x40020020, 0x0004 Bytes, ..., Flags = 0x02000004) -- CPU_ReadMem(4 bytes @ 0x40020020) - Data: 00 00 00 00  returns 0x04 (0000ms, 43585ms total)
T0508 3274:414 JLINK_ReadMemEx(0x40020024, 0x0004 Bytes, ..., Flags = 0x02000004) -- CPU_ReadMem(4 bytes @ 0x40020024) - Data: 00 00 00 00  returns 0x04 (0001ms, 43586ms total)
T0508 3274:415 JLINK_ReadMemEx(0x40020028, 0x0004 Bytes, ..., Flags = 0x02000004) -- CPU_ReadMem(4 bytes @ 0x40020028) - Data: 00 00 00 00  returns 0x04 (0000ms, 43586ms total)
T0508 3274:415 JLINK_ReadMemEx(0x40020028, 0x0004 Bytes, ..., Flags = 0x02000004) -- CPU_ReadMem(4 bytes @ 0x40020028) - Data: 00 00 00 00  returns 0x04 (0001ms, 43587ms total)
T0508 3274:416 JLINK_ReadMemEx(0x40020030, 0x000C Bytes, ..., Flags = 0x02000004) -- CPU_ReadMem(12 bytes @ 0x40020030) - Data: 00 00 00 00 00 00 00 00 00 00 00 00  returns 0x0C (0000ms, 43587ms total)
T0508 3274:416 JLINK_ReadMemEx(0x40020030, 0x0004 Bytes, ..., Flags = 0x02000004) -- CPU_ReadMem(4 bytes @ 0x40020030) - Data: 00 00 00 00  returns 0x04 (0001ms, 43588ms total)
T0508 3274:417 JLINK_ReadMemEx(0x40020034, 0x0004 Bytes, ..., Flags = 0x02000004) -- CPU_ReadMem(4 bytes @ 0x40020034) - Data: 00 00 00 00  returns 0x04 (0000ms, 43588ms total)
T0508 3274:417 JLINK_ReadMemEx(0x40020038, 0x0004 Bytes, ..., Flags = 0x02000004) -- CPU_ReadMem(4 bytes @ 0x40020038) - Data: 00 00 00 00  returns 0x04 (0000ms, 43588ms total)
T0508 3274:417 JLINK_ReadMemEx(0x4002003C, 0x0004 Bytes, ..., Flags = 0x02000004) -- CPU_ReadMem(4 bytes @ 0x4002003C) - Data: 00 00 00 00  returns 0x04 (0001ms, 43589ms total)
T0508 3274:418 JLINK_ReadMemEx(0x4002003C, 0x0004 Bytes, ..., Flags = 0x02000004) -- CPU_ReadMem(4 bytes @ 0x4002003C) - Data: 00 00 00 00  returns 0x04 (0000ms, 43589ms total)
T0508 3274:418 JLINK_ReadMemEx(0x40020044, 0x000C Bytes, ..., Flags = 0x02000004) -- CPU_ReadMem(12 bytes @ 0x40020044) - Data: 00 00 00 00 00 00 00 00 00 00 00 00  returns 0x0C (0001ms, 43590ms total)
T0508 3274:419 JLINK_ReadMemEx(0x40020044, 0x0004 Bytes, ..., Flags = 0x02000004) -- CPU_ReadMem(4 bytes @ 0x40020044) - Data: 00 00 00 00  returns 0x04 (0000ms, 43590ms total)
T0508 3274:419 JLINK_ReadMemEx(0x40020048, 0x0004 Bytes, ..., Flags = 0x02000004) -- CPU_ReadMem(4 bytes @ 0x40020048) - Data: 00 00 00 00  returns 0x04 (0000ms, 43590ms total)
T0508 3274:419 JLINK_ReadMemEx(0x4002004C, 0x0004 Bytes, ..., Flags = 0x02000004) -- CPU_ReadMem(4 bytes @ 0x4002004C) - Data: 00 00 00 00  returns 0x04 (0001ms, 43591ms total)
T0508 3274:420 JLINK_ReadMemEx(0x40020050, 0x0004 Bytes, ..., Flags = 0x02000004) -- CPU_ReadMem(4 bytes @ 0x40020050) - Data: 00 00 00 00  returns 0x04 (0000ms, 43591ms total)
T0508 3274:420 JLINK_ReadMemEx(0x40020050, 0x0004 Bytes, ..., Flags = 0x02000004) -- CPU_ReadMem(4 bytes @ 0x40020050) - Data: 00 00 00 00  returns 0x04 (0001ms, 43592ms total)
T0508 3274:421 JLINK_ReadMemEx(0x40020058, 0x000C Bytes, ..., Flags = 0x02000004) -- CPU_ReadMem(12 bytes @ 0x40020058) - Data: 00 00 00 00 00 00 00 00 00 00 00 00  returns 0x0C (0000ms, 43592ms total)
T0508 3274:421 JLINK_ReadMemEx(0x40020058, 0x0004 Bytes, ..., Flags = 0x02000004) -- CPU_ReadMem(4 bytes @ 0x40020058) - Data: 00 00 00 00  returns 0x04 (0001ms, 43593ms total)
T0508 3274:422 JLINK_ReadMemEx(0x4002005C, 0x0004 Bytes, ..., Flags = 0x02000004) -- CPU_ReadMem(4 bytes @ 0x4002005C) - Data: 00 00 00 00  returns 0x04 (0000ms, 43593ms total)
T0508 3274:422 JLINK_ReadMemEx(0x40020060, 0x0004 Bytes, ..., Flags = 0x02000004) -- CPU_ReadMem(4 bytes @ 0x40020060) - Data: 00 00 00 00  returns 0x04 (0000ms, 43593ms total)
T0508 3274:422 JLINK_ReadMemEx(0x40020064, 0x0004 Bytes, ..., Flags = 0x02000004) -- CPU_ReadMem(4 bytes @ 0x40020064) - Data: 00 00 00 00  returns 0x04 (0001ms, 43594ms total)
T0508 3274:423 JLINK_ReadMemEx(0x40020064, 0x0004 Bytes, ..., Flags = 0x02000004) -- CPU_ReadMem(4 bytes @ 0x40020064) - Data: 00 00 00 00  returns 0x04 (0000ms, 43594ms total)
T0508 3274:423 JLINK_ReadMemEx(0x4002006C, 0x000C Bytes, ..., Flags = 0x02000004) -- CPU_ReadMem(12 bytes @ 0x4002006C) - Data: 00 00 00 00 00 00 00 00 00 00 00 00  returns 0x0C (0001ms, 43595ms total)
T0508 3274:424 JLINK_ReadMemEx(0x4002006C, 0x0004 Bytes, ..., Flags = 0x02000004) -- CPU_ReadMem(4 bytes @ 0x4002006C) - Data: 00 00 00 00  returns 0x04 (0000ms, 43595ms total)
T0508 3274:424 JLINK_ReadMemEx(0x40020070, 0x0004 Bytes, ..., Flags = 0x02000004) -- CPU_ReadMem(4 bytes @ 0x40020070) - Data: 00 00 00 00  returns 0x04 (0001ms, 43596ms total)
T0508 3274:425 JLINK_ReadMemEx(0x40020074, 0x0004 Bytes, ..., Flags = 0x02000004) -- CPU_ReadMem(4 bytes @ 0x40020074) - Data: 00 00 00 00  returns 0x04 (0000ms, 43596ms total)
T0508 3274:425 JLINK_ReadMemEx(0x40020078, 0x0004 Bytes, ..., Flags = 0x02000004) -- CPU_ReadMem(4 bytes @ 0x40020078) - Data: 00 00 00 00  returns 0x04 (0000ms, 43596ms total)
T0508 3274:425 JLINK_ReadMemEx(0x40020078, 0x0004 Bytes, ..., Flags = 0x02000004) -- CPU_ReadMem(4 bytes @ 0x40020078) - Data: 00 00 00 00  returns 0x04 (0001ms, 43597ms total)
T0508 3274:426 JLINK_ReadMemEx(0x40020080, 0x000C Bytes, ..., Flags = 0x02000004) -- CPU_ReadMem(12 bytes @ 0x40020080) - Data: 00 00 00 00 00 00 00 00 00 00 00 00  returns 0x0C (0000ms, 43597ms total)
T0508 3274:426 JLINK_ReadMemEx(0x40020080, 0x0004 Bytes, ..., Flags = 0x02000004) -- CPU_ReadMem(4 bytes @ 0x40020080) - Data: 00 00 00 00  returns 0x04 (0001ms, 43598ms total)
T0508 3274:427 JLINK_ReadMemEx(0x40020084, 0x0004 Bytes, ..., Flags = 0x02000004) -- CPU_ReadMem(4 bytes @ 0x40020084) - Data: 00 00 00 00  returns 0x04 (0000ms, 43598ms total)
T0508 3274:427 JLINK_ReadMemEx(0x40020088, 0x0004 Bytes, ..., Flags = 0x02000004) -- CPU_ReadMem(4 bytes @ 0x40020088) - Data: 00 00 00 00  returns 0x04 (0000ms, 43598ms total)
T0508 3274:427 JLINK_ReadMemEx(0x4002008C, 0x0004 Bytes, ..., Flags = 0x02000004) -- CPU_ReadMem(4 bytes @ 0x4002008C) - Data: 00 00 00 00  returns 0x04 (0001ms, 43599ms total)
T0508 3274:428 JLINK_ReadMemEx(0x4002008C, 0x0004 Bytes, ..., Flags = 0x02000004) -- CPU_ReadMem(4 bytes @ 0x4002008C) - Data: 00 00 00 00  returns 0x04 (0000ms, 43599ms total)
T0508 3275:367 JLINK_ReadReg(R0)  returns 0x00000000 (0001ms, 43600ms total)
T0508 3275:368 JLINK_ReadReg(R1)  returns 0x00000003 (0000ms, 43600ms total)
T0508 3275:368 JLINK_ReadReg(R2)  returns 0x40022000 (0000ms, 43600ms total)
T0508 3275:368 JLINK_ReadReg(R3)  returns 0x04C11DB7 (0000ms, 43600ms total)
T0508 3275:368 JLINK_ReadReg(R4)  returns 0x00000000 (0000ms, 43600ms total)
T0508 3275:368 JLINK_ReadReg(R5)  returns 0x00000000 (0000ms, 43600ms total)
T0508 3275:368 JLINK_ReadReg(R6)  returns 0x00000000 (0000ms, 43600ms total)
T0508 3275:368 JLINK_ReadReg(R7)  returns 0x00000000 (0000ms, 43600ms total)
T0508 3275:368 JLINK_ReadReg(R8)  returns 0x00000000 (0000ms, 43600ms total)
T0508 3275:368 JLINK_ReadReg(R9)  returns 0x20000160 (0000ms, 43600ms total)
T0508 3275:368 JLINK_ReadReg(R10)  returns 0x00000000 (0000ms, 43600ms total)
T0508 3275:368 JLINK_ReadReg(R11)  returns 0x00000000 (0000ms, 43600ms total)
T0508 3275:368 JLINK_ReadReg(R12)  returns 0x00000000 (0000ms, 43600ms total)
T0508 3275:368 JLINK_ReadReg(R13 (SP))  returns 0x200005D0 (0000ms, 43600ms total)
T0508 3275:368 JLINK_ReadReg(R14)  returns 0xFFFFFFFF (0000ms, 43600ms total)
T0508 3275:368 JLINK_ReadReg(R15 (PC))  returns 0x08000100 (0000ms, 43600ms total)
T0508 3275:368 JLINK_ReadReg(XPSR)  returns 0x01000000 (0000ms, 43600ms total)
T0508 3275:368 JLINK_ReadReg(MSP)  returns 0x200005D0 (0000ms, 43600ms total)
T0508 3275:368 JLINK_ReadReg(PSP)  returns 0x20001000 (0000ms, 43600ms total)
T0508 3275:368 JLINK_ReadReg(CFBP)  returns 0x00000000 (0000ms, 43600ms total)
T0508 3275:378 JLINK_ReadMemEx(0x20000010, 0x0005 Bytes, ..., Flags = 0x02000000) -- CPU_ReadMem(64 bytes @ 0x20000000) -- Updating C cache (64 bytes @ 0x20000000) -- Read from C cache (5 bytes @ 0x20000010) - Data: 58 40 64 1E FA  returns 0x05 (0002ms, 43602ms total)
T0508 3275:382 JLINK_ReadMemEx(0x200000A8, 0x0016 Bytes, ..., Flags = 0x02000000) -- CPU_ReadMem(64 bytes @ 0x20000080) -- Updating C cache (64 bytes @ 0x20000080) -- Read from C cache (22 bytes @ 0x200000A8) - Data: 00 69 20 F0 04 00 28 49 08 61 00 20 70 47 01 46 ...  returns 0x16 (0001ms, 43603ms total)
T0508 3275:387 JLINK_ReadMemEx(0x00000000, 0x0004 Bytes, ..., Flags = 0x02000000) -- CPU_ReadMem(4 bytes @ 0x00000004) -- CPU_ReadMem(64 bytes @ 0x08000000) -- Updating C cache (64 bytes @ 0x08000000) -- Read from C cache (4 bytes @ 0x08000000) - Data: D0 05 00 20  returns 0x04 (0002ms, 43605ms total)
T0508 3275:393 JLINK_ReadMemEx(0x20000008, 0x0004 Bytes, ..., Flags = 0x02000000) -- Read from C cache (4 bytes @ 0x20000008) - Data: 68 40 08 24  returns 0x04 (0000ms, 43605ms total)
T0508 3275:396 JLINK_ReadMemEx(0x20000000, 0x0004 Bytes, ..., Flags = 0x02000000) -- Read from C cache (4 bytes @ 0x20000000) - Data: FE E7 0A E0  returns 0x04 (0000ms, 43605ms total)
T0508 3275:400 JLINK_ReadMemEx(0x2000000C, 0x0004 Bytes, ..., Flags = 0x02000000) -- Read from C cache (4 bytes @ 0x2000000C) - Data: 40 00 00 D3  returns 0x04 (0000ms, 43605ms total)
T0508 3275:403 JLINK_ReadMemEx(0x20000004, 0x0004 Bytes, ..., Flags = 0x02000000) -- Read from C cache (4 bytes @ 0x20000004) - Data: 0D 78 2D 06  returns 0x04 (0000ms, 43605ms total)
T3524 3275:420 JLINK_ReadMemEx(0x08000100, 0x0002 Bytes, ..., Flags = 0x02000000) -- Read from C cache (2 bytes @ 0x08000100) - Data: 06 48  returns 0x02 (0000ms, 43605ms total)
T3524 3275:420 JLINK_SetBPEx(Addr = 0x0800180C, Type = 0xFFFFFFF2)  returns 0x00000001 (0000ms, 43605ms total)
T3524 3275:420 JLINK_SetBPEx(Addr = 0x080018AA, Type = 0xFFFFFFF2)  returns 0x00000002 (0000ms, 43605ms total)
T3524 3275:420 JLINK_Go() -- CPU_WriteMem(4 bytes @ 0xE0002000) -- CPU_WriteMem(4 bytes @ 0xE0002000) -- CPU_ReadMem(4 bytes @ 0xE0001000) -- CPU_WriteMem(4 bytes @ 0xE0002008) -- CPU_WriteMem(4 bytes @ 0xE000200C) -- CPU_WriteMem(4 bytes @ 0xE0002010) -- CPU_WriteMem(4 bytes @ 0xE0002014) -- CPU_WriteMem(4 bytes @ 0xE0002018) -- CPU_WriteMem(4 bytes @ 0xE000201C) -- CPU_WriteMem(4 bytes @ 0xE0001004) (0005ms, 43610ms total)
T3524 3275:526 JLINK_IsHalted()  returns TRUE (0003ms, 43613ms total)
T3524 3275:529 JLINK_Halt()  returns 0x00 (0000ms, 43610ms total)
T3524 3275:529 JLINK_IsHalted()  returns TRUE (0000ms, 43610ms total)
T3524 3275:529 JLINK_IsHalted()  returns TRUE (0000ms, 43610ms total)
T3524 3275:529 JLINK_IsHalted()  returns TRUE (0000ms, 43610ms total)
T3524 3275:529 JLINK_ReadReg(R15 (PC))  returns 0x0800180C (0000ms, 43610ms total)
T3524 3275:529 JLINK_ReadReg(XPSR)  returns 0x61000000 (0000ms, 43610ms total)
T3524 3275:529 JLINK_ClrBPEx(BPHandle = 0x00000001)  returns 0x00 (0000ms, 43610ms total)
T3524 3275:529 JLINK_ClrBPEx(BPHandle = 0x00000002)  returns 0x00 (0000ms, 43610ms total)
T3524 3275:529 JLINK_ReadMemU32(0xE000ED30, 0x0001 Items, ...) -- CPU_ReadMem(4 bytes @ 0xE000ED30) - Data: 03 00 00 00  returns 0x01 (0000ms, 43610ms total)
T3524 3275:529 JLINK_ReadMemU32(0xE0001028, 0x0001 Items, ...) -- CPU_ReadMem(4 bytes @ 0xE0001028) - Data: 00 00 00 00  returns 0x01 (0001ms, 43611ms total)
T3524 3275:530 JLINK_ReadMemU32(0xE0001038, 0x0001 Items, ...) -- CPU_ReadMem(4 bytes @ 0xE0001038) - Data: 00 02 00 00  returns 0x01 (0000ms, 43611ms total)
T3524 3275:530 JLINK_ReadMemU32(0xE0001048, 0x0001 Items, ...) -- CPU_ReadMem(4 bytes @ 0xE0001048) - Data: 00 00 00 00  returns 0x01 (0001ms, 43612ms total)
T3524 3275:531 JLINK_ReadMemU32(0xE0001058, 0x0001 Items, ...) -- CPU_ReadMem(4 bytes @ 0xE0001058) - Data: 00 00 00 00  returns 0x01 (0000ms, 43612ms total)
T3524 3275:531 JLINK_ReadReg(R0)  returns 0x0800180D (0000ms, 43612ms total)
T3524 3275:531 JLINK_ReadReg(R1)  returns 0x200005D0 (0000ms, 43612ms total)
T3524 3275:531 JLINK_ReadReg(R2)  returns 0x00000000 (0000ms, 43612ms total)
T3524 3275:531 JLINK_ReadReg(R3)  returns 0x080017FF (0000ms, 43612ms total)
T3524 3275:531 JLINK_ReadReg(R4)  returns 0x080019BC (0000ms, 43612ms total)
T3524 3275:531 JLINK_ReadReg(R5)  returns 0x080019BC (0000ms, 43612ms total)
T3524 3275:531 JLINK_ReadReg(R6)  returns 0x00000000 (0000ms, 43612ms total)
T3524 3275:531 JLINK_ReadReg(R7)  returns 0x00000000 (0000ms, 43612ms total)
T3524 3275:531 JLINK_ReadReg(R8)  returns 0x00000000 (0000ms, 43612ms total)
T3524 3275:531 JLINK_ReadReg(R9)  returns 0x20000160 (0000ms, 43612ms total)
T3524 3275:531 JLINK_ReadReg(R10)  returns 0x00000000 (0000ms, 43612ms total)
T3524 3275:531 JLINK_ReadReg(R11)  returns 0x00000000 (0000ms, 43612ms total)
T3524 3275:531 JLINK_ReadReg(R12)  returns 0x00000000 (0000ms, 43612ms total)
T3524 3275:531 JLINK_ReadReg(R13 (SP))  returns 0x200005D0 (0000ms, 43612ms total)
T3524 3275:531 JLINK_ReadReg(R14)  returns 0x08000309 (0000ms, 43612ms total)
T3524 3275:531 JLINK_ReadReg(R15 (PC))  returns 0x0800180C (0000ms, 43612ms total)
T3524 3275:531 JLINK_ReadReg(XPSR)  returns 0x61000000 (0000ms, 43612ms total)
T3524 3275:531 JLINK_ReadReg(MSP)  returns 0x200005D0 (0000ms, 43612ms total)
T3524 3275:531 JLINK_ReadReg(PSP)  returns 0x20001000 (0000ms, 43612ms total)
T3524 3275:531 JLINK_ReadReg(CFBP)  returns 0x00000000 (0000ms, 43612ms total)
T0508 3275:532 JLINK_ReadMemU32(0xE0001004, 0x0001 Items, ...) -- CPU_ReadMem(4 bytes @ 0xE0001004) - Data: 3C 09 00 00  returns 0x01 (0000ms, 43612ms total)
T0508 3275:532 JLINK_ReadMemEx(0x20000010, 0x0005 Bytes, ..., Flags = 0x02000000) -- CPU_ReadMem(64 bytes @ 0x20000000) -- Updating C cache (64 bytes @ 0x20000000) -- Read from C cache (5 bytes @ 0x20000010) - Data: FF AA 04 09 00  returns 0x05 (0001ms, 43613ms total)
T0508 3275:534 JLINK_ReadMemEx(0x200000A8, 0x0016 Bytes, ..., Flags = 0x02000000) -- CPU_ReadMem(64 bytes @ 0x20000080) -- Updating C cache (64 bytes @ 0x20000080) -- Read from C cache (22 bytes @ 0x200000A8) - Data: 00 00 00 00 00 00 00 00 00 00 00 00 00 00 00 00 ...  returns 0x16 (0001ms, 43614ms total)
T0508 3275:535 JLINK_ReadMemEx(0x00000000, 0x0004 Bytes, ..., Flags = 0x02000000) -- CPU_ReadMem(4 bytes @ 0x00000004) -- CPU_ReadMem(64 bytes @ 0x08000000) -- Updating C cache (64 bytes @ 0x08000000) -- Read from C cache (4 bytes @ 0x08000000) - Data: D0 05 00 20  returns 0x04 (0002ms, 43616ms total)
T0508 3275:537 JLINK_ReadMemEx(0x20000008, 0x0004 Bytes, ..., Flags = 0x02000000) -- Read from C cache (4 bytes @ 0x20000008) - Data: 00 00 00 00  returns 0x04 (0000ms, 43616ms total)
T0508 3275:537 JLINK_ReadMemEx(0x20000000, 0x0004 Bytes, ..., Flags = 0x02000000) -- Read from C cache (4 bytes @ 0x20000000) - Data: 00 00 00 00  returns 0x04 (0000ms, 43616ms total)
T0508 3275:537 JLINK_ReadMemEx(0x2000000C, 0x0004 Bytes, ..., Flags = 0x02000000) -- Read from C cache (4 bytes @ 0x2000000C) - Data: 00 00 00 00  returns 0x04 (0000ms, 43616ms total)
T0508 3275:537 JLINK_ReadMemEx(0x20000004, 0x0004 Bytes, ..., Flags = 0x02000000) -- Read from C cache (4 bytes @ 0x20000004) - Data: 00 00 00 00  returns 0x04 (0000ms, 43616ms total)
T0508 3275:537 JLINK_ReadMemEx(0x40020000, 0x0004 Bytes, ..., Flags = 0x02000004) -- CPU_ReadMem(4 bytes @ 0x40020000) - Data: 00 00 00 00  returns 0x04 (0001ms, 43617ms total)
T0508 3275:538 JLINK_ReadMemEx(0x40020000, 0x0004 Bytes, ..., Flags = 0x02000004) -- CPU_ReadMem(4 bytes @ 0x40020000) - Data: 00 00 00 00  returns 0x04 (0000ms, 43617ms total)
T0508 3275:538 JLINK_ReadMemEx(0x40020008, 0x000C Bytes, ..., Flags = 0x02000004) -- CPU_ReadMem(12 bytes @ 0x40020008) - Data: 00 00 00 00 00 00 00 00 00 00 00 00  returns 0x0C (0001ms, 43618ms total)
T0508 3275:539 JLINK_ReadMemEx(0x40020008, 0x0004 Bytes, ..., Flags = 0x02000004) -- CPU_ReadMem(4 bytes @ 0x40020008) - Data: 00 00 00 00  returns 0x04 (0000ms, 43618ms total)
T0508 3275:539 JLINK_ReadMemEx(0x4002000C, 0x0004 Bytes, ..., Flags = 0x02000004) -- CPU_ReadMem(4 bytes @ 0x4002000C) - Data: 00 00 00 00  returns 0x04 (0000ms, 43618ms total)
T0508 3275:539 JLINK_ReadMemEx(0x40020010, 0x0004 Bytes, ..., Flags = 0x02000004) -- CPU_ReadMem(4 bytes @ 0x40020010) - Data: 00 00 00 00  returns 0x04 (0001ms, 43619ms total)
T0508 3275:540 JLINK_ReadMemEx(0x40020014, 0x0004 Bytes, ..., Flags = 0x02000004) -- CPU_ReadMem(4 bytes @ 0x40020014) - Data: 00 00 00 00  returns 0x04 (0000ms, 43619ms total)
T0508 3275:540 JLINK_ReadMemEx(0x40020014, 0x0004 Bytes, ..., Flags = 0x02000004) -- CPU_ReadMem(4 bytes @ 0x40020014) - Data: 00 00 00 00  returns 0x04 (0001ms, 43620ms total)
T0508 3275:541 JLINK_ReadMemEx(0x4002001C, 0x000C Bytes, ..., Flags = 0x02000004) -- CPU_ReadMem(12 bytes @ 0x4002001C) - Data: 00 00 00 00 00 00 00 00 00 00 00 00  returns 0x0C (0000ms, 43620ms total)
T0508 3275:541 JLINK_ReadMemEx(0x4002001C, 0x0004 Bytes, ..., Flags = 0x02000004) -- CPU_ReadMem(4 bytes @ 0x4002001C) - Data: 00 00 00 00  returns 0x04 (0001ms, 43621ms total)
T0508 3275:542 JLINK_ReadMemEx(0x40020020, 0x0004 Bytes, ..., Flags = 0x02000004) -- CPU_ReadMem(4 bytes @ 0x40020020) - Data: 00 00 00 00  returns 0x04 (0000ms, 43621ms total)
T0508 3275:542 JLINK_ReadMemEx(0x40020024, 0x0004 Bytes, ..., Flags = 0x02000004) -- CPU_ReadMem(4 bytes @ 0x40020024) - Data: 00 00 00 00  returns 0x04 (0000ms, 43621ms total)
T0508 3275:542 JLINK_ReadMemEx(0x40020028, 0x0004 Bytes, ..., Flags = 0x02000004) -- CPU_ReadMem(4 bytes @ 0x40020028) - Data: 00 00 00 00  returns 0x04 (0001ms, 43622ms total)
T0508 3275:543 JLINK_ReadMemEx(0x40020028, 0x0004 Bytes, ..., Flags = 0x02000004) -- CPU_ReadMem(4 bytes @ 0x40020028) - Data: 00 00 00 00  returns 0x04 (0000ms, 43622ms total)
T0508 3275:543 JLINK_ReadMemEx(0x40020030, 0x000C Bytes, ..., Flags = 0x02000004) -- CPU_ReadMem(12 bytes @ 0x40020030) - Data: 00 00 00 00 00 00 00 00 00 00 00 00  returns 0x0C (0001ms, 43623ms total)
T0508 3275:544 JLINK_ReadMemEx(0x40020030, 0x0004 Bytes, ..., Flags = 0x02000004) -- CPU_ReadMem(4 bytes @ 0x40020030) - Data: 00 00 00 00  returns 0x04 (0000ms, 43623ms total)
T0508 3275:544 JLINK_ReadMemEx(0x40020034, 0x0004 Bytes, ..., Flags = 0x02000004) -- CPU_ReadMem(4 bytes @ 0x40020034) - Data: 00 00 00 00  returns 0x04 (0000ms, 43623ms total)
T0508 3275:544 JLINK_ReadMemEx(0x40020038, 0x0004 Bytes, ..., Flags = 0x02000004) -- CPU_ReadMem(4 bytes @ 0x40020038) - Data: 00 00 00 00  returns 0x04 (0001ms, 43624ms total)
T0508 3275:545 JLINK_ReadMemEx(0x4002003C, 0x0004 Bytes, ..., Flags = 0x02000004) -- CPU_ReadMem(4 bytes @ 0x4002003C) - Data: 00 00 00 00  returns 0x04 (0000ms, 43624ms total)
T0508 3275:545 JLINK_ReadMemEx(0x4002003C, 0x0004 Bytes, ..., Flags = 0x02000004) -- CPU_ReadMem(4 bytes @ 0x4002003C) - Data: 00 00 00 00  returns 0x04 (0001ms, 43625ms total)
T0508 3275:546 JLINK_ReadMemEx(0x40020044, 0x000C Bytes, ..., Flags = 0x02000004) -- CPU_ReadMem(12 bytes @ 0x40020044) - Data: 00 00 00 00 00 00 00 00 00 00 00 00  returns 0x0C (0000ms, 43625ms total)
T0508 3275:546 JLINK_ReadMemEx(0x40020044, 0x0004 Bytes, ..., Flags = 0x02000004) -- CPU_ReadMem(4 bytes @ 0x40020044) - Data: 00 00 00 00  returns 0x04 (0001ms, 43626ms total)
T0508 3275:547 JLINK_ReadMemEx(0x40020048, 0x0004 Bytes, ..., Flags = 0x02000004) -- CPU_ReadMem(4 bytes @ 0x40020048) - Data: 00 00 00 00  returns 0x04 (0000ms, 43626ms total)
T0508 3275:547 JLINK_ReadMemEx(0x4002004C, 0x0004 Bytes, ..., Flags = 0x02000004) -- CPU_ReadMem(4 bytes @ 0x4002004C) - Data: 00 00 00 00  returns 0x04 (0000ms, 43626ms total)
T0508 3275:547 JLINK_ReadMemEx(0x40020050, 0x0004 Bytes, ..., Flags = 0x02000004) -- CPU_ReadMem(4 bytes @ 0x40020050) - Data: 00 00 00 00  returns 0x04 (0001ms, 43627ms total)
T0508 3275:548 JLINK_ReadMemEx(0x40020050, 0x0004 Bytes, ..., Flags = 0x02000004) -- CPU_ReadMem(4 bytes @ 0x40020050) - Data: 00 00 00 00  returns 0x04 (0000ms, 43627ms total)
T0508 3275:548 JLINK_ReadMemEx(0x40020058, 0x000C Bytes, ..., Flags = 0x02000004) -- CPU_ReadMem(12 bytes @ 0x40020058) - Data: 00 00 00 00 00 00 00 00 00 00 00 00  returns 0x0C (0001ms, 43628ms total)
T0508 3275:549 JLINK_ReadMemEx(0x40020058, 0x0004 Bytes, ..., Flags = 0x02000004) -- CPU_ReadMem(4 bytes @ 0x40020058) - Data: 00 00 00 00  returns 0x04 (0000ms, 43628ms total)
T0508 3275:549 JLINK_ReadMemEx(0x4002005C, 0x0004 Bytes, ..., Flags = 0x02000004) -- CPU_ReadMem(4 bytes @ 0x4002005C) - Data: 00 00 00 00  returns 0x04 (0001ms, 43629ms total)
T0508 3275:550 JLINK_ReadMemEx(0x40020060, 0x0004 Bytes, ..., Flags = 0x02000004) -- CPU_ReadMem(4 bytes @ 0x40020060) - Data: 00 00 00 00  returns 0x04 (0000ms, 43629ms total)
T0508 3275:550 JLINK_ReadMemEx(0x40020064, 0x0004 Bytes, ..., Flags = 0x02000004) -- CPU_ReadMem(4 bytes @ 0x40020064) - Data: 00 00 00 00  returns 0x04 (0000ms, 43629ms total)
T0508 3275:550 JLINK_ReadMemEx(0x40020064, 0x0004 Bytes, ..., Flags = 0x02000004) -- CPU_ReadMem(4 bytes @ 0x40020064) - Data: 00 00 00 00  returns 0x04 (0001ms, 43630ms total)
T0508 3275:551 JLINK_ReadMemEx(0x4002006C, 0x000C Bytes, ..., Flags = 0x02000004) -- CPU_ReadMem(12 bytes @ 0x4002006C) - Data: 00 00 00 00 00 00 00 00 00 00 00 00  returns 0x0C (0000ms, 43630ms total)
T0508 3275:551 JLINK_ReadMemEx(0x4002006C, 0x0004 Bytes, ..., Flags = 0x02000004) -- CPU_ReadMem(4 bytes @ 0x4002006C) - Data: 00 00 00 00  returns 0x04 (0001ms, 43631ms total)
T0508 3275:552 JLINK_ReadMemEx(0x40020070, 0x0004 Bytes, ..., Flags = 0x02000004) -- CPU_ReadMem(4 bytes @ 0x40020070) - Data: 00 00 00 00  returns 0x04 (0000ms, 43631ms total)
T0508 3275:552 JLINK_ReadMemEx(0x40020074, 0x0004 Bytes, ..., Flags = 0x02000004) -- CPU_ReadMem(4 bytes @ 0x40020074) - Data: 00 00 00 00  returns 0x04 (0000ms, 43631ms total)
T0508 3275:553 JLINK_ReadMemEx(0x40020078, 0x0004 Bytes, ..., Flags = 0x02000004) -- CPU_ReadMem(4 bytes @ 0x40020078) - Data: 00 00 00 00  returns 0x04 (0000ms, 43632ms total)
T0508 3275:553 JLINK_ReadMemEx(0x40020078, 0x0004 Bytes, ..., Flags = 0x02000004) -- CPU_ReadMem(4 bytes @ 0x40020078) - Data: 00 00 00 00  returns 0x04 (0000ms, 43632ms total)
T0508 3275:553 JLINK_ReadMemEx(0x40020080, 0x000C Bytes, ..., Flags = 0x02000004) -- CPU_ReadMem(12 bytes @ 0x40020080) - Data: 00 00 00 00 00 00 00 00 00 00 00 00  returns 0x0C (0001ms, 43633ms total)
T0508 3275:554 JLINK_ReadMemEx(0x40020080, 0x0004 Bytes, ..., Flags = 0x02000004) -- CPU_ReadMem(4 bytes @ 0x40020080) - Data: 00 00 00 00  returns 0x04 (0000ms, 43633ms total)
T0508 3275:554 JLINK_ReadMemEx(0x40020084, 0x0004 Bytes, ..., Flags = 0x02000004) -- CPU_ReadMem(4 bytes @ 0x40020084) - Data: 00 00 00 00  returns 0x04 (0001ms, 43634ms total)
T0508 3275:555 JLINK_ReadMemEx(0x40020088, 0x0004 Bytes, ..., Flags = 0x02000004) -- CPU_ReadMem(4 bytes @ 0x40020088) - Data: 00 00 00 00  returns 0x04 (0000ms, 43634ms total)
T0508 3275:555 JLINK_ReadMemEx(0x4002008C, 0x0004 Bytes, ..., Flags = 0x02000004) -- CPU_ReadMem(4 bytes @ 0x4002008C) - Data: 00 00 00 00  returns 0x04 (0000ms, 43634ms total)
T0508 3275:555 JLINK_ReadMemEx(0x4002008C, 0x0004 Bytes, ..., Flags = 0x02000004) -- CPU_ReadMem(4 bytes @ 0x4002008C) - Data: 00 00 00 00  returns 0x04 (0001ms, 43635ms total)
T0508 3275:558 JLINK_ReadMemEx(0x0800170C, 0x003C Bytes, ..., Flags = 0x02000000) -- CPU_ReadMem(128 bytes @ 0x08001700) -- Updating C cache (128 bytes @ 0x08001700) -- Read from C cache (60 bytes @ 0x0800170C) - Data: 01 EB 00 10 61 68 89 00 B0 FB F1 F0 B0 FB F5 F0 ...  returns 0x3C (0002ms, 43637ms total)
T0508 3275:560 JLINK_ReadMemEx(0x08001748, 0x003C Bytes, ..., Flags = 0x02000000) -- CPU_ReadMem(64 bytes @ 0x08001780) -- Updating C cache (64 bytes @ 0x08001780) -- Read from C cache (60 bytes @ 0x08001748) - Data: B0 FB F5 F0 6F F0 18 01 48 43 07 EB 80 01 08 EB ...  returns 0x3C (0001ms, 43638ms total)
T0508 3275:561 JLINK_ReadMemEx(0x08001784, 0x003C Bytes, ..., Flags = 0x02000000) -- Read from C cache (60 bytes @ 0x08001784) - Data: 0B D0 4A 1C 02 62 02 68 09 78 51 60 C1 8C 49 1E ...  returns 0x3C (0000ms, 43638ms total)
T0508 3275:561 JLINK_ReadMemEx(0x080017C0, 0x003C Bytes, ..., Flags = 0x02000000) -- CPU_ReadMem(64 bytes @ 0x080017C0) -- Updating C cache (64 bytes @ 0x080017C0) -- Read from C cache (60 bytes @ 0x080017C0) - Data: 80 02 CA 60 00 68 C1 68 41 F0 40 01 C1 60 00 20 ...  returns 0x3C (0001ms, 43639ms total)
T0508 3275:562 JLINK_ReadMemEx(0x080017FC, 0x0004 Bytes, ..., Flags = 0x02000000) -- Read from C cache (4 bytes @ 0x080017FC) - Data: 70 47 00 20  returns 0x04 (0000ms, 43639ms total)
T0508 3275:562 JLINK_ReadMemEx(0x08001800, 0x0038 Bytes, ..., Flags = 0x02000000) -- CPU_ReadMem(64 bytes @ 0x08001800) -- Updating C cache (64 bytes @ 0x08001800) -- Read from C cache (56 bytes @ 0x08001800) - Data: 01 E0 01 C1 12 1F 00 2A FB D1 70 47 08 B5 FE F7 ...  returns 0x38 (0001ms, 43640ms total)
T3524 3276:392 JLINK_ReadMemEx(0x0800180C, 0x0002 Bytes, ..., Flags = 0x02000000) -- Read from C cache (2 bytes @ 0x0800180C) - Data: 08 B5  returns 0x02 (0001ms, 43641ms total)
T3524 3276:393 JLINK_SetBPEx(Addr = 0x080018AA, Type = 0xFFFFFFF2)  returns 0x00000003 (0000ms, 43641ms total)
T3524 3276:393 JLINK_Go() -- CPU_WriteMem(4 bytes @ 0xE0002000) -- CPU_ReadMem(4 bytes @ 0xE0001000) -- CPU_WriteMem(4 bytes @ 0xE0002008) -- CPU_WriteMem(4 bytes @ 0xE000200C) (0002ms, 43643ms total)
T3524 3276:497 JLINK_IsHalted()  returns TRUE (0002ms, 43645ms total)
T3524 3276:499 JLINK_Halt()  returns 0x00 (0000ms, 43643ms total)
T3524 3276:499 JLINK_IsHalted()  returns TRUE (0000ms, 43643ms total)
T3524 3276:499 JLINK_IsHalted()  returns TRUE (0000ms, 43643ms total)
T3524 3276:499 JLINK_IsHalted()  returns TRUE (0000ms, 43643ms total)
T3524 3276:499 JLINK_ReadReg(R15 (PC))  returns 0x080018AA (0000ms, 43643ms total)
T3524 3276:499 JLINK_ReadReg(XPSR)  returns 0x41000000 (0000ms, 43643ms total)
T3524 3276:499 JLINK_ClrBPEx(BPHandle = 0x00000003)  returns 0x00 (0000ms, 43643ms total)
T3524 3276:499 JLINK_ReadMemU32(0xE000ED30, 0x0001 Items, ...) -- CPU_ReadMem(4 bytes @ 0xE000ED30) - Data: 03 00 00 00  returns 0x01 (0000ms, 43643ms total)
T3524 3276:499 JLINK_ReadMemU32(0xE0001028, 0x0001 Items, ...) -- CPU_ReadMem(4 bytes @ 0xE0001028) - Data: 00 00 00 00  returns 0x01 (0001ms, 43644ms total)
T3524 3276:500 JLINK_ReadMemU32(0xE0001038, 0x0001 Items, ...) -- CPU_ReadMem(4 bytes @ 0xE0001038) - Data: 00 02 00 00  returns 0x01 (0000ms, 43644ms total)
T3524 3276:500 JLINK_ReadMemU32(0xE0001048, 0x0001 Items, ...) -- CPU_ReadMem(4 bytes @ 0xE0001048) - Data: 00 00 00 00  returns 0x01 (0000ms, 43644ms total)
T3524 3276:500 JLINK_ReadMemU32(0xE0001058, 0x0001 Items, ...) -- CPU_ReadMem(4 bytes @ 0xE0001058) - Data: 00 00 00 00  returns 0x01 (0001ms, 43645ms total)
T3524 3276:501 JLINK_ReadReg(R0)  returns 0x00000000 (0000ms, 43645ms total)
T3524 3276:501 JLINK_ReadReg(R1)  returns 0x0000200C (0000ms, 43645ms total)
T3524 3276:501 JLINK_ReadReg(R2)  returns 0x08001992 (0000ms, 43645ms total)
T3524 3276:501 JLINK_ReadReg(R3)  returns 0x0000160C (0000ms, 43645ms total)
T3524 3276:501 JLINK_ReadReg(R4)  returns 0x00000000 (0000ms, 43645ms total)
T3524 3276:501 JLINK_ReadReg(R5)  returns 0x0000000C (0000ms, 43645ms total)
T3524 3276:501 JLINK_ReadReg(R6)  returns 0x00000000 (0000ms, 43645ms total)
T3524 3276:501 JLINK_ReadReg(R7)  returns 0x00000000 (0000ms, 43645ms total)
T3524 3276:501 JLINK_ReadReg(R8)  returns 0x00000000 (0000ms, 43645ms total)
T3524 3276:501 JLINK_ReadReg(R9)  returns 0x20000160 (0000ms, 43645ms total)
T3524 3276:501 JLINK_ReadReg(R10)  returns 0x00000000 (0000ms, 43645ms total)
T3524 3276:501 JLINK_ReadReg(R11)  returns 0x00000000 (0000ms, 43645ms total)
T3524 3276:501 JLINK_ReadReg(R12)  returns 0x44444B44 (0000ms, 43645ms total)
T3524 3276:501 JLINK_ReadReg(R13 (SP))  returns 0x200005C8 (0000ms, 43645ms total)
T3524 3276:501 JLINK_ReadReg(R14)  returns 0x08001739 (0000ms, 43645ms total)
T3524 3276:501 JLINK_ReadReg(R15 (PC))  returns 0x080018AA (0000ms, 43645ms total)
T3524 3276:501 JLINK_ReadReg(XPSR)  returns 0x41000000 (0000ms, 43645ms total)
T3524 3276:501 JLINK_ReadReg(MSP)  returns 0x200005C8 (0000ms, 43645ms total)
T3524 3276:501 JLINK_ReadReg(PSP)  returns 0x20001000 (0000ms, 43645ms total)
T3524 3276:501 JLINK_ReadReg(CFBP)  returns 0x00000000 (0000ms, 43645ms total)
T0508 3276:501 JLINK_ReadMemEx(0x200005CC, 0x0004 Bytes, ..., Flags = 0x02000000) -- CPU_ReadMem(64 bytes @ 0x200005C0) -- Updating C cache (64 bytes @ 0x200005C0) -- Read from C cache (4 bytes @ 0x200005CC) - Data: 09 03 00 08  returns 0x04 (0001ms, 43646ms total)
T0508 3276:502 JLINK_ReadMemU32(0xE0001004, 0x0001 Items, ...) -- CPU_ReadMem(4 bytes @ 0xE0001004) - Data: 49 2D 00 00  returns 0x01 (0001ms, 43647ms total)
T0508 3276:503 JLINK_ReadMemEx(0x20000010, 0x0005 Bytes, ..., Flags = 0x02000000) -- CPU_ReadMem(64 bytes @ 0x20000000) -- Updating C cache (64 bytes @ 0x20000000) -- Read from C cache (5 bytes @ 0x20000010) - Data: FF AA 04 09 00  returns 0x05 (0001ms, 43648ms total)
T0508 3276:504 JLINK_ReadMemEx(0x200000A8, 0x0016 Bytes, ..., Flags = 0x02000000) -- CPU_ReadMem(64 bytes @ 0x20000080) -- Updating C cache (64 bytes @ 0x20000080) -- Read from C cache (22 bytes @ 0x200000A8) - Data: 00 00 00 00 00 00 00 00 00 00 00 00 00 00 00 00 ...  returns 0x16 (0001ms, 43649ms total)
T0508 3276:505 JLINK_ReadMemEx(0x00000000, 0x0004 Bytes, ..., Flags = 0x02000000) -- CPU_ReadMem(4 bytes @ 0x00000004) -- CPU_ReadMem(64 bytes @ 0x08000000) -- Updating C cache (64 bytes @ 0x08000000) -- Read from C cache (4 bytes @ 0x08000000) - Data: D0 05 00 20  returns 0x04 (0001ms, 43650ms total)
T0508 3276:506 JLINK_ReadMemEx(0x20000008, 0x0004 Bytes, ..., Flags = 0x02000000) -- Read from C cache (4 bytes @ 0x20000008) - Data: 00 00 00 00  returns 0x04 (0000ms, 43650ms total)
T0508 3276:507 JLINK_ReadMemEx(0x20000000, 0x0004 Bytes, ..., Flags = 0x02000000) -- Read from C cache (4 bytes @ 0x20000000) - Data: 00 00 00 00  returns 0x04 (0000ms, 43650ms total)
T0508 3276:507 JLINK_ReadMemEx(0x2000000C, 0x0004 Bytes, ..., Flags = 0x02000000) -- Read from C cache (4 bytes @ 0x2000000C) - Data: 00 00 00 00  returns 0x04 (0000ms, 43650ms total)
T0508 3276:507 JLINK_ReadMemEx(0x20000004, 0x0004 Bytes, ..., Flags = 0x02000000) -- Read from C cache (4 bytes @ 0x20000004) - Data: 00 00 00 00  returns 0x04 (0000ms, 43650ms total)
T0508 3276:507 JLINK_ReadMemEx(0x40020000, 0x0004 Bytes, ..., Flags = 0x02000004) -- CPU_ReadMem(4 bytes @ 0x40020000) - Data: 00 00 00 00  returns 0x04 (0001ms, 43651ms total)
T0508 3276:508 JLINK_ReadMemEx(0x40020000, 0x0004 Bytes, ..., Flags = 0x02000004) -- CPU_ReadMem(4 bytes @ 0x40020000) - Data: 00 00 00 00  returns 0x04 (0000ms, 43651ms total)
T0508 3276:508 JLINK_ReadMemEx(0x40020008, 0x000C Bytes, ..., Flags = 0x02000004) -- CPU_ReadMem(12 bytes @ 0x40020008) - Data: 00 00 00 00 00 00 00 00 00 00 00 00  returns 0x0C (0000ms, 43651ms total)
T0508 3276:508 JLINK_ReadMemEx(0x40020008, 0x0004 Bytes, ..., Flags = 0x02000004) -- CPU_ReadMem(4 bytes @ 0x40020008) - Data: 00 00 00 00  returns 0x04 (0001ms, 43652ms total)
T0508 3276:509 JLINK_ReadMemEx(0x4002000C, 0x0004 Bytes, ..., Flags = 0x02000004) -- CPU_ReadMem(4 bytes @ 0x4002000C) - Data: 00 00 00 00  returns 0x04 (0000ms, 43652ms total)
T0508 3276:509 JLINK_ReadMemEx(0x40020010, 0x0004 Bytes, ..., Flags = 0x02000004) -- CPU_ReadMem(4 bytes @ 0x40020010) - Data: 00 00 00 00  returns 0x04 (0002ms, 43654ms total)
T0508 3276:511 JLINK_ReadMemEx(0x40020014, 0x0004 Bytes, ..., Flags = 0x02000004) -- CPU_ReadMem(4 bytes @ 0x40020014) - Data: 00 00 00 00  returns 0x04 (0000ms, 43654ms total)
T0508 3276:511 JLINK_ReadMemEx(0x40020014, 0x0004 Bytes, ..., Flags = 0x02000004) -- CPU_ReadMem(4 bytes @ 0x40020014) - Data: 00 00 00 00  returns 0x04 (0000ms, 43654ms total)
T0508 3276:511 JLINK_ReadMemEx(0x4002001C, 0x000C Bytes, ..., Flags = 0x02000004) -- CPU_ReadMem(12 bytes @ 0x4002001C) - Data: 00 00 00 00 00 00 00 00 00 00 00 00  returns 0x0C (0001ms, 43655ms total)
T0508 3276:512 JLINK_ReadMemEx(0x4002001C, 0x0004 Bytes, ..., Flags = 0x02000004) -- CPU_ReadMem(4 bytes @ 0x4002001C) - Data: 00 00 00 00  returns 0x04 (0000ms, 43655ms total)
T0508 3276:512 JLINK_ReadMemEx(0x40020020, 0x0004 Bytes, ..., Flags = 0x02000004) -- CPU_ReadMem(4 bytes @ 0x40020020) - Data: 00 00 00 00  returns 0x04 (0001ms, 43656ms total)
T0508 3276:513 JLINK_ReadMemEx(0x40020024, 0x0004 Bytes, ..., Flags = 0x02000004) -- CPU_ReadMem(4 bytes @ 0x40020024) - Data: 00 00 00 00  returns 0x04 (0000ms, 43656ms total)
T0508 3276:513 JLINK_ReadMemEx(0x40020028, 0x0004 Bytes, ..., Flags = 0x02000004) -- CPU_ReadMem(4 bytes @ 0x40020028) - Data: 00 00 00 00  returns 0x04 (0001ms, 43657ms total)
T0508 3276:514 JLINK_ReadMemEx(0x40020028, 0x0004 Bytes, ..., Flags = 0x02000004) -- CPU_ReadMem(4 bytes @ 0x40020028) - Data: 00 00 00 00  returns 0x04 (0000ms, 43657ms total)
T0508 3276:514 JLINK_ReadMemEx(0x40020030, 0x000C Bytes, ..., Flags = 0x02000004) -- CPU_ReadMem(12 bytes @ 0x40020030) - Data: 00 00 00 00 00 00 00 00 00 00 00 00  returns 0x0C (0000ms, 43657ms total)
T0508 3276:514 JLINK_ReadMemEx(0x40020030, 0x0004 Bytes, ..., Flags = 0x02000004) -- CPU_ReadMem(4 bytes @ 0x40020030) - Data: 00 00 00 00  returns 0x04 (0001ms, 43658ms total)
T0508 3276:515 JLINK_ReadMemEx(0x40020034, 0x0004 Bytes, ..., Flags = 0x02000004) -- CPU_ReadMem(4 bytes @ 0x40020034) - Data: 00 00 00 00  returns 0x04 (0000ms, 43658ms total)
T0508 3276:515 JLINK_ReadMemEx(0x40020038, 0x0004 Bytes, ..., Flags = 0x02000004) -- CPU_ReadMem(4 bytes @ 0x40020038) - Data: 00 00 00 00  returns 0x04 (0001ms, 43659ms total)
T0508 3276:516 JLINK_ReadMemEx(0x4002003C, 0x0004 Bytes, ..., Flags = 0x02000004) -- CPU_ReadMem(4 bytes @ 0x4002003C) - Data: 00 00 00 00  returns 0x04 (0000ms, 43659ms total)
T0508 3276:516 JLINK_ReadMemEx(0x4002003C, 0x0004 Bytes, ..., Flags = 0x02000004) -- CPU_ReadMem(4 bytes @ 0x4002003C) - Data: 00 00 00 00  returns 0x04 (0001ms, 43660ms total)
T0508 3276:517 JLINK_ReadMemEx(0x40020044, 0x000C Bytes, ..., Flags = 0x02000004) -- CPU_ReadMem(12 bytes @ 0x40020044) - Data: 90 30 00 00 00 00 00 00 00 00 00 00  returns 0x0C (0000ms, 43660ms total)
T0508 3276:517 JLINK_ReadMemEx(0x40020044, 0x0004 Bytes, ..., Flags = 0x02000004) -- CPU_ReadMem(4 bytes @ 0x40020044) - Data: 90 30 00 00  returns 0x04 (0000ms, 43660ms total)
T0508 3276:517 JLINK_ReadMemEx(0x40020048, 0x0004 Bytes, ..., Flags = 0x02000004) -- CPU_ReadMem(4 bytes @ 0x40020048) - Data: 00 00 00 00  returns 0x04 (0001ms, 43661ms total)
T0508 3276:518 JLINK_ReadMemEx(0x4002004C, 0x0004 Bytes, ..., Flags = 0x02000004) -- CPU_ReadMem(4 bytes @ 0x4002004C) - Data: 00 00 00 00  returns 0x04 (0000ms, 43661ms total)
T0508 3276:518 JLINK_ReadMemEx(0x40020050, 0x0004 Bytes, ..., Flags = 0x02000004) -- CPU_ReadMem(4 bytes @ 0x40020050) - Data: 00 00 00 00  returns 0x04 (0001ms, 43662ms total)
T0508 3276:519 JLINK_ReadMemEx(0x40020050, 0x0004 Bytes, ..., Flags = 0x02000004) -- CPU_ReadMem(4 bytes @ 0x40020050) - Data: 00 00 00 00  returns 0x04 (0000ms, 43662ms total)
T0508 3276:519 JLINK_ReadMemEx(0x40020058, 0x000C Bytes, ..., Flags = 0x02000004) -- CPU_ReadMem(12 bytes @ 0x40020058) - Data: A0 30 00 00 00 00 00 00 00 00 00 00  returns 0x0C (0001ms, 43663ms total)
T0508 3276:520 JLINK_ReadMemEx(0x40020058, 0x0004 Bytes, ..., Flags = 0x02000004) -- CPU_ReadMem(4 bytes @ 0x40020058) - Data: A0 30 00 00  returns 0x04 (0000ms, 43663ms total)
T0508 3276:520 JLINK_ReadMemEx(0x4002005C, 0x0004 Bytes, ..., Flags = 0x02000004) -- CPU_ReadMem(4 bytes @ 0x4002005C) - Data: 00 00 00 00  returns 0x04 (0000ms, 43663ms total)
T0508 3276:520 JLINK_ReadMemEx(0x40020060, 0x0004 Bytes, ..., Flags = 0x02000004) -- CPU_ReadMem(4 bytes @ 0x40020060) - Data: 00 00 00 00  returns 0x04 (0001ms, 43664ms total)
T0508 3276:521 JLINK_ReadMemEx(0x40020064, 0x0004 Bytes, ..., Flags = 0x02000004) -- CPU_ReadMem(4 bytes @ 0x40020064) - Data: 00 00 00 00  returns 0x04 (0000ms, 43664ms total)
T0508 3276:521 JLINK_ReadMemEx(0x40020064, 0x0004 Bytes, ..., Flags = 0x02000004) -- CPU_ReadMem(4 bytes @ 0x40020064) - Data: 00 00 00 00  returns 0x04 (0001ms, 43665ms total)
T0508 3276:522 JLINK_ReadMemEx(0x4002006C, 0x000C Bytes, ..., Flags = 0x02000004) -- CPU_ReadMem(12 bytes @ 0x4002006C) - Data: A0 00 00 00 00 00 00 00 00 00 00 00  returns 0x0C (0000ms, 43665ms total)
T0508 3276:522 JLINK_ReadMemEx(0x4002006C, 0x0004 Bytes, ..., Flags = 0x02000004) -- CPU_ReadMem(4 bytes @ 0x4002006C) - Data: A0 00 00 00  returns 0x04 (0000ms, 43665ms total)
T0508 3276:522 JLINK_ReadMemEx(0x40020070, 0x0004 Bytes, ..., Flags = 0x02000004) -- CPU_ReadMem(4 bytes @ 0x40020070) - Data: 00 00 00 00  returns 0x04 (0001ms, 43666ms total)
T0508 3276:523 JLINK_ReadMemEx(0x40020074, 0x0004 Bytes, ..., Flags = 0x02000004) -- CPU_ReadMem(4 bytes @ 0x40020074) - Data: 00 00 00 00  returns 0x04 (0000ms, 43666ms total)
T0508 3276:523 JLINK_ReadMemEx(0x40020078, 0x0004 Bytes, ..., Flags = 0x02000004) -- CPU_ReadMem(4 bytes @ 0x40020078) - Data: 00 00 00 00  returns 0x04 (0001ms, 43667ms total)
T0508 3276:524 JLINK_ReadMemEx(0x40020078, 0x0004 Bytes, ..., Flags = 0x02000004) -- CPU_ReadMem(4 bytes @ 0x40020078) - Data: 00 00 00 00  returns 0x04 (0000ms, 43667ms total)
T0508 3276:524 JLINK_ReadMemEx(0x40020080, 0x000C Bytes, ..., Flags = 0x02000004) -- CPU_ReadMem(12 bytes @ 0x40020080) - Data: 90 00 00 00 00 00 00 00 00 00 00 00  returns 0x0C (0000ms, 43667ms total)
T0508 3276:524 JLINK_ReadMemEx(0x40020080, 0x0004 Bytes, ..., Flags = 0x02000004) -- CPU_ReadMem(4 bytes @ 0x40020080) - Data: 90 00 00 00  returns 0x04 (0001ms, 43668ms total)
